
T282C 000:386 SEGGER J-Link V4.96d Log File (0001ms, 0305ms total)
T282C 000:386 DLL Compiled: Jan 29 2015 11:45:37 (0002ms, 0306ms total)
T282C 000:386 Logging started @ 2018-02-07 11:14 (0002ms, 0306ms total)
T282C 000:388 JLINK_SetWarnOutHandler(...) (0000ms, 0306ms total)
T282C 000:388 JLINK_OpenEx(...)
Firmware: J-Link ARM-OB STM32 compiled Aug 22 2012 19:52:04
Hardware: V7.00
S/N: 20090928
Feature(s): RDI,FlashDL,FlashBP,JFlash,GDBFull  returns O.K. (0294ms, 0600ms total)
T282C 000:682 JLINK_SetErrorOutHandler(...) (0000ms, 0600ms total)
T282C 000:682 JLINK_ExecCommand("ProjectFile = "C:\Users\OYM666\Documents\GitHub\Insulator_Robot\Insulator_Robot\USER\JLinkSettings.ini"", ...)  returns 0x00 (0003ms, 0603ms total)
T282C 000:685 JLINK_ExecCommand("Device = STM32F103RB", ...)Device "STM32F103RB" selected.  returns 0x00 (0002ms, 0605ms total)
T282C 000:687 JLINK_ExecCommand("DisableConnectionTimeout", ...)  returns 0x01 (0000ms, 0605ms total)
T282C 000:687 JLINK_GetHardwareVersion()  returns 0x11170 (0001ms, 0606ms total)
T282C 000:688 JLINK_GetDLLVersion()  returns 49604 (0000ms, 0606ms total)
T282C 000:688 JLINK_GetFirmwareString(...) (0000ms, 0606ms total)
T282C 000:693 JLINK_GetDLLVersion()  returns 49604 (0000ms, 0606ms total)
T282C 000:693 JLINK_GetCompileDateTime() (0000ms, 0606ms total)
T282C 000:696 JLINK_GetFirmwareString(...) (0000ms, 0606ms total)
T282C 000:697 JLINK_GetHardwareVersion()  returns 0x11170 (0000ms, 0606ms total)
T282C 000:702 JLINK_TIF_Select(JLINKARM_TIF_SWD)  returns 0x00 (0002ms, 0608ms total)
T282C 000:705 JLINK_SetSpeed(20000) (0000ms, 0609ms total)
T282C 000:705 JLINK_GetId() >0x108 TIF>Found SWD-DP with ID 0x1BA01477 >0x0D TIF> >0x28 TIF> >0x0D TIF> >0x28 TIF> >0x0D TIF> >0x21 TIF> >0x0D TIF> >0x28 TIF> >0x0D TIF> >0x28 TIF> >0x0D TIF> >0x28 TIF> >0x0D TIF> >0x21 TIF> >0x0D TIF> >0x21 TIF> >0x0D TIF> >0x28 TIF> >0x0D TIF> >0x21 TIF> >0x0D TIF> >0x21 TIF> >0x108 TIF>Found SWD-DP with ID 0x1BA01477 >0x0D TIF> >0x21 TIF> >0x0D TIF> >0x28 TIF> >0x0D TIF> >0x28 TIF> >0x0D TIF> >0x21 TIF> >0x0D TIF> >0x28 TIF> >0x0D TIF> >0x21 TIF> >0x0D TIF> >0x21 TIF>
 >0x0D TIF> >0x21 TIF> >0x0D TIF> >0x21 TIF> >0x0D TIF> >0x28 TIF> >0x0D TIF> >0x28 TIF> >0x0D TIF> >0x21 TIF> >0x0D TIF> >0x28 TIF> >0x0D TIF> >0x28 TIF> >0x0D TIF> >0x28 TIF> >0x0D TIF> >0x21 TIF> >0x0D TIF> >0x21 TIF> >0x0D TIF> >0x28 TIF> >0x0D TIF> >0x21 TIF> >0x0D TIF> >0x21 TIF>Found Cortex-M3 r1p1, Little endian. -- CPU_WriteMem(4 bytes @ 0xE0002000) -- CPU_ReadMem(4 bytes @ 0xE000EDF0) -- CPU_ReadMem(4 bytes @ 0xE0002000)FPUnit: 6 code (BP) slots and 2 literal slots
 -- CPU_ReadMem(4 bytes @ 0xE000EDFC) -- CPU_ReadMem(4 bytes @ 0xE0001000) -- CPU_WriteMem(4 bytes @ 0xE0001000) -- CPU_ReadMem(4 bytes @ 0xE000ED88) -- CPU_WriteMem(4 bytes @ 0xE000ED88) -- CPU_ReadMem(4 bytes @ 0xE000ED88) -- CPU_WriteMem(4 bytes @ 0xE000ED88) -- CPU_ReadMem(4 bytes @ 0xE00FF010)TPIU fitted. -- CPU_ReadMem(4 bytes @ 0xE00FF014) -- CPU_ReadMem(4 bytes @ 0xE00FF018) >0x0D TIF> >0x21 TIF>  returns 0x1BA01477 (0081ms, 0690ms total)
T282C 000:786 JLINK_GetDLLVersion()  returns 49604 (0000ms, 0690ms total)
T282C 000:786 JLINK_CORE_GetFound()  returns 0x30000FF (0000ms, 0690ms total)
T282C 000:786 JLINK_GetDebugInfo(0x100) -- Value=0xE00FF003  returns 0x00 (0000ms, 0690ms total)
T282C 000:787 JLINK_ReadMem (0xE00FF000, 0x0020 Bytes, ...) -- CPU is running -- CPU_ReadMem(32 bytes @ 0xE00FF000) - Data: 03 F0 F0 FF 03 20 F0 FF 03 30 F0 FF 03 10 F0 FF ...  returns 0x00 (0002ms, 0692ms total)
T282C 000:789 JLINK_ReadMem (0xE000EFF0, 0x0010 Bytes, ...) -- CPU is running -- CPU_ReadMem(16 bytes @ 0xE000EFF0) - Data: 0D 00 00 00 E0 00 00 00 05 00 00 00 B1 00 00 00  returns 0x00 (0002ms, 0694ms total)
T282C 000:791 JLINK_ReadMem (0xE000EFD0, 0x0020 Bytes, ...) -- CPU is running -- CPU_ReadMem(32 bytes @ 0xE000EFD0) - Data: 04 00 00 00 00 00 00 00 00 00 00 00 00 00 00 00 ...  returns 0x00 (0001ms, 0695ms total)
T282C 000:792 JLINK_ReadMem (0xE0001FF0, 0x0010 Bytes, ...) -- CPU is running -- CPU_ReadMem(16 bytes @ 0xE0001FF0) - Data: 0D 00 00 00 E0 00 00 00 05 00 00 00 B1 00 00 00  returns 0x00 (0002ms, 0697ms total)
T282C 000:794 JLINK_ReadMem (0xE0001FD0, 0x0020 Bytes, ...) -- CPU is running -- CPU_ReadMem(32 bytes @ 0xE0001FD0) - Data: 04 00 00 00 00 00 00 00 00 00 00 00 00 00 00 00 ...  returns 0x00 (0001ms, 0698ms total)
T282C 000:796 JLINK_ReadMem (0xE0002FF0, 0x0010 Bytes, ...) -- CPU is running -- CPU_ReadMem(16 bytes @ 0xE0002FF0) - Data: 0D 00 00 00 E0 00 00 00 05 00 00 00 B1 00 00 00  returns 0x00 (0001ms, 0699ms total)
T282C 000:797 JLINK_ReadMem (0xE0002FD0, 0x0020 Bytes, ...) -- CPU is running -- CPU_ReadMem(32 bytes @ 0xE0002FD0) - Data: 04 00 00 00 00 00 00 00 00 00 00 00 00 00 00 00 ...  returns 0x00 (0001ms, 0700ms total)
T282C 000:798 JLINK_ReadMem (0xE0000FF0, 0x0010 Bytes, ...) -- CPU is running -- CPU_ReadMem(16 bytes @ 0xE0000FF0) - Data: 0D 00 00 00 E0 00 00 00 05 00 00 00 B1 00 00 00  returns 0x00 (0002ms, 0702ms total)
T282C 000:800 JLINK_ReadMem (0xE0000FD0, 0x0020 Bytes, ...) -- CPU is running -- CPU_ReadMem(32 bytes @ 0xE0000FD0) - Data: 04 00 00 00 00 00 00 00 00 00 00 00 00 00 00 00 ...  returns 0x00 (0001ms, 0703ms total)
T282C 000:801 JLINK_ReadMem (0xE0040FF0, 0x0010 Bytes, ...) -- CPU is running -- CPU_ReadMem(16 bytes @ 0xE0040FF0) - Data: 0D 00 00 00 90 00 00 00 05 00 00 00 B1 00 00 00  returns 0x00 (0002ms, 0705ms total)
T282C 000:803 JLINK_ReadMem (0xE0040FD0, 0x0020 Bytes, ...) -- CPU is running -- CPU_ReadMem(32 bytes @ 0xE0040FD0) - Data: 04 00 00 00 00 00 00 00 00 00 00 00 00 00 00 00 ...  returns 0x00 (0002ms, 0707ms total)
T282C 000:805 JLINK_ReadMemU32(0xE000ED00, 0x0001 Items, ...) -- CPU is running -- CPU_ReadMem(4 bytes @ 0xE000ED00) - Data: 31 C2 1F 41  returns 0x01 (0001ms, 0708ms total)
T282C 000:806 JLINK_SetResetType(JLINKARM_RESET_TYPE_NORMAL)  returns JLINKARM_RESET_TYPE_NORMAL (0000ms, 0708ms total)
T282C 000:806 JLINK_Reset() -- CPU is running -- CPU_WriteMem(4 bytes @ 0xE000EDF0) -- CPU is running -- CPU_WriteMem(4 bytes @ 0xE000EDFC) >0x35 TIF> -- CPU is running -- CPU_WriteMem(4 bytes @ 0xE000ED0C) -- CPU is running -- CPU_ReadMem(4 bytes @ 0xE000EDF0) -- CPU is running -- CPU_ReadMem(4 bytes @ 0xE000EDF0) -- CPU is running -- CPU_WriteMem(4 bytes @ 0xE000EDF0) -- CPU is running -- CPU_WriteMem(4 bytes @ 0xE000EDFC) -- CPU is running -- CPU_ReadMem(4 bytes @ 0xE000EDF0)
 -- CPU_WriteMem(4 bytes @ 0xE0002000) -- CPU_ReadMem(4 bytes @ 0xE000EDFC) -- CPU_ReadMem(4 bytes @ 0xE0001000) (0026ms, 0734ms total)
T282C 000:832 JLINK_ReadReg(R15 (PC))  returns 0x08000188 (0000ms, 0734ms total)
T282C 000:832 JLINK_ReadReg(XPSR)  returns 0x01000000 (0000ms, 0734ms total)
T282C 000:832 JLINK_Halt()  returns 0x00 (0001ms, 0735ms total)
T282C 000:833 JLINK_IsHalted()  returns TRUE (0000ms, 0735ms total)
T282C 000:833 JLINK_ReadMemU32(0xE000EDF0, 0x0001 Items, ...) -- CPU_ReadMem(4 bytes @ 0xE000EDF0) - Data: 03 00 03 00  returns 0x01 (0001ms, 0736ms total)
T282C 000:834 JLINK_WriteU32(0xE000EDF0, 0xA05F0003) -- CPU_WriteMem(4 bytes @ 0xE000EDF0)  returns 0x00 (0001ms, 0737ms total)
T282C 000:835 JLINK_WriteU32(0xE000EDFC, 0x01000000) -- CPU_WriteMem(4 bytes @ 0xE000EDFC)  returns 0x00 (0001ms, 0738ms total)
T282C 000:839 JLINK_GetHWStatus(...)  returns 0x00 (0001ms, 0739ms total)
T282C 000:841 JLINK_GetNumBPUnits(Type = 0xFFFFFF00)  returns 0x06 (0000ms, 0739ms total)
T282C 000:841 JLINK_GetNumBPUnits(Type = 0xF0)  returns 0x2000 (0000ms, 0739ms total)
T282C 000:841 JLINK_GetNumWPUnits()  returns 0x04 (0000ms, 0739ms total)
T282C 000:844 JLINK_GetSpeed()  returns 0xFA0 (0001ms, 0740ms total)
T282C 000:846 JLINK_ReadMemU32(0xE000E004, 0x0001 Items, ...) -- CPU_ReadMem(4 bytes @ 0xE000E004) - Data: 01 00 00 00  returns 0x01 (0001ms, 0741ms total)
T282C 000:847 JLINK_ReadMemU32(0xE000E004, 0x0001 Items, ...) -- CPU_ReadMem(4 bytes @ 0xE000E004) - Data: 01 00 00 00  returns 0x01 (0001ms, 0742ms total)
T282C 000:848 JLINK_WriteMem(0xE0001000, 0x001C Bytes, ...) - Data: 01 00 00 00 00 00 00 00 00 00 00 00 00 00 00 00 ... -- CPU_WriteMem(28 bytes @ 0xE0001000)  returns 0x1C (0003ms, 0745ms total)
T282C 000:851 JLINK_ReadMem (0xE0001000, 0x001C Bytes, ...) -- CPU_ReadMem(28 bytes @ 0xE0001000) - Data: 01 00 00 40 00 00 00 00 00 00 00 00 00 00 00 00 ...  returns 0x00 (0002ms, 0747ms total)
T282C 000:853 JLINK_ReadReg(R15 (PC))  returns 0x08000188 (0000ms, 0747ms total)
T282C 000:853 JLINK_ReadReg(XPSR)  returns 0x01000000 (0000ms, 0747ms total)
T282C 000:995 JLINK_SetResetType(JLINKARM_RESET_TYPE_NORMAL)  returns JLINKARM_RESET_TYPE_NORMAL (0000ms, 0747ms total)
T282C 000:995 JLINK_Reset() -- CPU_WriteMem(4 bytes @ 0xE000EDF0) -- CPU_WriteMem(4 bytes @ 0xE000EDFC) >0x35 TIF> -- CPU_WriteMem(4 bytes @ 0xE000ED0C) -- CPU_ReadMem(4 bytes @ 0xE000EDF0) -- CPU_ReadMem(4 bytes @ 0xE000EDF0) -- CPU_WriteMem(4 bytes @ 0xE000EDF0) -- CPU_WriteMem(4 bytes @ 0xE000EDFC) -- CPU is running -- CPU_ReadMem(4 bytes @ 0xE000EDF0) -- CPU_WriteMem(4 bytes @ 0xE0002000) -- CPU_ReadMem(4 bytes @ 0xE000EDFC) -- CPU_ReadMem(4 bytes @ 0xE0001000) (0026ms, 0773ms total)
T282C 001:021 JLINK_ReadReg(R15 (PC))  returns 0x08000188 (0001ms, 0774ms total)
T282C 001:022 JLINK_ReadReg(XPSR)  returns 0x01000000 (0000ms, 0774ms total)
T282C 001:025 JLINK_ReadMem (0x08000188, 0x003C Bytes, ...) -- CPU_ReadMem(128 bytes @ 0x08000180) -- Updating C cache (128 bytes @ 0x08000180) -- Read from C cache (60 bytes @ 0x08000188) - Data: 09 48 80 47 09 48 00 47 FE E7 FE E7 FE E7 FE E7 ...  returns 0x00 (0003ms, 0777ms total)
T282C 001:953 JLINK_ReadMem (0x40021000, 0x0004 Bytes, ...) -- CPU_ReadMem(4 bytes @ 0x40021000) - Data: 83 52 00 00  returns 0x00 (0001ms, 0778ms total)
T282C 001:954 JLINK_ReadMem (0x40021004, 0x0004 Bytes, ...) -- CPU_ReadMem(4 bytes @ 0x40021004) - Data: 00 00 00 00  returns 0x00 (0002ms, 0780ms total)
T282C 001:956 JLINK_ReadMem (0x40021020, 0x0004 Bytes, ...) -- CPU_ReadMem(4 bytes @ 0x40021020) - Data: 00 00 00 00  returns 0x00 (0001ms, 0781ms total)
T282C 001:957 JLINK_ReadMem (0x40006400, 0x0004 Bytes, ...) -- CPU_ReadMem(4 bytes @ 0x40006400) - Data: 02 00 01 00  returns 0x00 (0001ms, 0782ms total)
T282C 001:958 JLINK_ReadMem (0x40006404, 0x0004 Bytes, ...) -- CPU_ReadMem(4 bytes @ 0x40006404) - Data: 0A 0C 00 00  returns 0x00 (0001ms, 0783ms total)
T282C 001:960 JLINK_ReadMem (0x40006414, 0x0004 Bytes, ...) -- CPU_ReadMem(4 bytes @ 0x40006414) - Data: 00 00 00 00  returns 0x00 (0001ms, 0785ms total)
T282C 001:961 JLINK_ReadMem (0x40006418, 0x0004 Bytes, ...) -- CPU_ReadMem(4 bytes @ 0x40006418) - Data: 00 00 00 00  returns 0x00 (0001ms, 0786ms total)
T282C 001:962 JLINK_ReadMem (0x4000641C, 0x0004 Bytes, ...) -- CPU_ReadMem(4 bytes @ 0x4000641C) - Data: 00 00 23 01  returns 0x00 (0001ms, 0787ms total)
T282C 001:963 JLINK_ReadMem (0x40021000, 0x0004 Bytes, ...) -- CPU_ReadMem(4 bytes @ 0x40021000) - Data: 83 52 00 00  returns 0x00 (0001ms, 0788ms total)
T282C 001:964 JLINK_ReadMem (0x40021004, 0x0004 Bytes, ...) -- CPU_ReadMem(4 bytes @ 0x40021004) - Data: 00 00 00 00  returns 0x00 (0002ms, 0790ms total)
T282C 001:966 JLINK_ReadMem (0x40021020, 0x0004 Bytes, ...) -- CPU_ReadMem(4 bytes @ 0x40021020) - Data: 00 00 00 00  returns 0x00 (0001ms, 0791ms total)
T282C 001:974 JLINK_ReadMem (0x4002101C, 0x0004 Bytes, ...) -- CPU_ReadMem(4 bytes @ 0x4002101C) - Data: 00 00 00 00  returns 0x00 (0001ms, 0792ms total)
T282C 001:975 JLINK_ReadMem (0x40021010, 0x0004 Bytes, ...) -- CPU_ReadMem(4 bytes @ 0x40021010) - Data: 00 00 00 00  returns 0x00 (0001ms, 0793ms total)
T282C 002:171 JLINK_ReadMem (0x40006400, 0x0004 Bytes, ...) -- CPU_ReadMem(4 bytes @ 0x40006400) - Data: 02 00 01 00  returns 0x00 (0002ms, 0795ms total)
T282C 002:284 JLINK_ReadMem (0x40006400, 0x001C Bytes, ...) -- CPU_ReadMem(28 bytes @ 0x40006400) - Data: 02 00 01 00 0A 0C 00 00 00 00 00 1C 00 00 00 00 ...  returns 0x00 (0002ms, 0797ms total)
T282C 002:286 JLINK_ReadMem (0x4000641C, 0x0004 Bytes, ...) -- CPU_ReadMem(4 bytes @ 0x4000641C) - Data: 00 00 23 01  returns 0x00 (0001ms, 0798ms total)
T282C 002:287 JLINK_ReadMem (0x40006580, 0x004C Bytes, ...) -- CPU_ReadMem(76 bytes @ 0x40006580) - Data: BA AB A3 52 3D 58 91 44 1A 55 54 55 6E B8 A1 83 ...  returns 0x00 (0002ms, 0800ms total)
T282C 002:289 JLINK_ReadMem (0x400065CC, 0x0004 Bytes, ...) -- CPU_ReadMem(4 bytes @ 0x400065CC) - Data: 37 5D 6E F7  returns 0x00 (0001ms, 0801ms total)
T282C 002:290 JLINK_ReadMem (0x40006600, 0x0004 Bytes, ...) -- CPU_ReadMem(4 bytes @ 0x40006600) - Data: 01 0E 1C 2A  returns 0x00 (0002ms, 0803ms total)
T282C 002:292 JLINK_ReadMem (0x40006604, 0x0004 Bytes, ...) -- CPU_ReadMem(4 bytes @ 0x40006604) - Data: 00 00 00 00  returns 0x00 (0001ms, 0804ms total)
T282C 002:293 JLINK_ReadMem (0x4000660C, 0x0004 Bytes, ...) -- CPU_ReadMem(4 bytes @ 0x4000660C) - Data: 00 00 00 00  returns 0x00 (0001ms, 0805ms total)
T282C 002:294 JLINK_ReadMem (0x40006614, 0x0004 Bytes, ...) -- CPU_ReadMem(4 bytes @ 0x40006614) - Data: 00 00 00 00  returns 0x00 (0002ms, 0807ms total)
T282C 002:296 JLINK_ReadMem (0x4000661C, 0x0004 Bytes, ...) -- CPU_ReadMem(4 bytes @ 0x4000661C) - Data: 00 00 00 00  returns 0x00 (0001ms, 0808ms total)
T282C 002:297 JLINK_ReadMem (0x40006640, 0x006C Bytes, ...) -- CPU_ReadMem(108 bytes @ 0x40006640) - Data: 00 00 00 00 00 00 00 00 75 45 0D 32 AD FE 2A A6 ...  returns 0x00 (0002ms, 0810ms total)
T282C 002:299 JLINK_ReadMem (0x400066AC, 0x0004 Bytes, ...) -- CPU_ReadMem(4 bytes @ 0x400066AC) - Data: EB 3B 3E 1B  returns 0x00 (0002ms, 0812ms total)
T282C 009:099 JLINK_ReadMem (0x20000024, 0x0004 Bytes, ...) -- CPU_ReadMem(64 bytes @ 0x20000000) -- Updating C cache (64 bytes @ 0x20000000) -- Read from C cache (4 bytes @ 0x20000024) - Data: 64 00 00 00  returns 0x00 (0003ms, 0815ms total)
T39B8 009:574 JLINK_SetBPEx(Addr = 0x08001AE0, Type = 0xFFFFFFF2)  returns 0x00000001 (0001ms, 0816ms total)
T39B8 009:575 JLINK_Go() -- CPU_WriteMem(4 bytes @ 0xE0002000) -- CPU_WriteMem(4 bytes @ 0xE0002008) -- CPU_WriteMem(4 bytes @ 0xE000200C) -- CPU_WriteMem(4 bytes @ 0xE0002010) -- CPU_WriteMem(4 bytes @ 0xE0002014) -- CPU_WriteMem(4 bytes @ 0xE0002018) -- CPU_WriteMem(4 bytes @ 0xE000201C) -- CPU_WriteMem(4 bytes @ 0xE0001004) (0007ms, 0823ms total)
T39B8 009:683 JLINK_IsHalted()  returns TRUE (0004ms, 0827ms total)
T39B8 009:687 JLINK_Halt()  returns 0x00 (0000ms, 0823ms total)
T39B8 009:687 JLINK_IsHalted()  returns TRUE (0000ms, 0823ms total)
T39B8 009:687 JLINK_IsHalted()  returns TRUE (0001ms, 0824ms total)
T39B8 009:688 JLINK_IsHalted()  returns TRUE (0000ms, 0823ms total)
T39B8 009:688 JLINK_ReadReg(R15 (PC))  returns 0x08001AE0 (0000ms, 0823ms total)
T39B8 009:688 JLINK_ReadReg(XPSR)  returns 0x21000000 (0000ms, 0823ms total)
T39B8 009:688 JLINK_ClrBPEx(BPHandle = 0x00000001)  returns 0x00 (0000ms, 0823ms total)
T39B8 009:688 JLINK_ReadMemU32(0xE000ED30, 0x0001 Items, ...) -- CPU_ReadMem(4 bytes @ 0xE000ED30) - Data: 03 00 00 00  returns 0x01 (0001ms, 0824ms total)
T39B8 009:689 JLINK_ReadMemU32(0xE0001028, 0x0001 Items, ...) -- CPU_ReadMem(4 bytes @ 0xE0001028) - Data: 00 00 00 00  returns 0x01 (0002ms, 0826ms total)
T39B8 009:691 JLINK_ReadMemU32(0xE0001038, 0x0001 Items, ...) -- CPU_ReadMem(4 bytes @ 0xE0001038) - Data: 00 02 00 00  returns 0x01 (0001ms, 0827ms total)
T39B8 009:692 JLINK_ReadMemU32(0xE0001048, 0x0001 Items, ...) -- CPU_ReadMem(4 bytes @ 0xE0001048) - Data: 00 00 00 00  returns 0x01 (0001ms, 0828ms total)
T39B8 009:693 JLINK_ReadMemU32(0xE0001058, 0x0001 Items, ...) -- CPU_ReadMem(4 bytes @ 0xE0001058) - Data: 00 00 00 00  returns 0x01 (0001ms, 0829ms total)
T39B8 009:695 JLINK_ReadReg(R0)  returns 0x200004F8 (0000ms, 0829ms total)
T39B8 009:695 JLINK_ReadReg(R1)  returns 0x200006F8 (0000ms, 0829ms total)
T39B8 009:695 JLINK_ReadReg(R2)  returns 0x200006F8 (0000ms, 0829ms total)
T39B8 009:695 JLINK_ReadReg(R3)  returns 0x200006F8 (0000ms, 0829ms total)
T39B8 009:695 JLINK_ReadReg(R4)  returns 0x00000000 (0000ms, 0829ms total)
T39B8 009:695 JLINK_ReadReg(R5)  returns 0x20000498 (0000ms, 0829ms total)
T39B8 009:695 JLINK_ReadReg(R6)  returns 0x00000000 (0001ms, 0830ms total)
T39B8 009:696 JLINK_ReadReg(R7)  returns 0x00000000 (0000ms, 0830ms total)
T39B8 009:696 JLINK_ReadReg(R8)  returns 0x00000000 (0000ms, 0830ms total)
T39B8 009:696 JLINK_ReadReg(R9)  returns 0x20000160 (0000ms, 0830ms total)
T39B8 009:696 JLINK_ReadReg(R10)  returns 0x08002418 (0000ms, 0830ms total)
T39B8 009:696 JLINK_ReadReg(R11)  returns 0x00000000 (0000ms, 0830ms total)
T39B8 009:696 JLINK_ReadReg(R12)  returns 0x200004D8 (0001ms, 0831ms total)
T39B8 009:697 JLINK_ReadReg(R13 (SP))  returns 0x20000AF8 (0000ms, 0831ms total)
T39B8 009:697 JLINK_ReadReg(R14)  returns 0x08000177 (0000ms, 0831ms total)
T39B8 009:697 JLINK_ReadReg(R15 (PC))  returns 0x08001AE0 (0000ms, 0831ms total)
T39B8 009:697 JLINK_ReadReg(XPSR)  returns 0x21000000 (0000ms, 0831ms total)
T39B8 009:697 JLINK_ReadReg(MSP)  returns 0x20000AF8 (0000ms, 0831ms total)
T39B8 009:697 JLINK_ReadReg(PSP)  returns 0x20001000 (0000ms, 0831ms total)
T39B8 009:697 JLINK_ReadReg(CFBP)  returns 0x00000000 (0001ms, 0832ms total)
T282C 009:705 JLINK_ReadMem (0x20000024, 0x0004 Bytes, ...) -- CPU_ReadMem(64 bytes @ 0x20000000) -- Updating C cache (64 bytes @ 0x20000000) -- Read from C cache (4 bytes @ 0x20000024) - Data: 64 00 00 00  returns 0x00 (0002ms, 0834ms total)
T282C 009:707 JLINK_ReadMem (0x40021000, 0x0004 Bytes, ...) -- CPU_ReadMem(4 bytes @ 0x40021000) - Data: 83 52 03 03  returns 0x00 (0001ms, 0835ms total)
T282C 009:708 JLINK_ReadMem (0x40021004, 0x0004 Bytes, ...) -- CPU_ReadMem(4 bytes @ 0x40021004) - Data: 0A 04 1D 00  returns 0x00 (0001ms, 0836ms total)
T282C 009:709 JLINK_ReadMem (0x40021020, 0x0004 Bytes, ...) -- CPU_ReadMem(4 bytes @ 0x40021020) - Data: 00 00 00 00  returns 0x00 (0002ms, 0838ms total)
T282C 009:711 JLINK_ReadMem (0x40006400, 0x0004 Bytes, ...) -- CPU_ReadMem(4 bytes @ 0x40006400) - Data: 02 00 01 00  returns 0x00 (0001ms, 0839ms total)
T282C 009:712 JLINK_ReadMem (0x40006404, 0x0004 Bytes, ...) -- CPU_ReadMem(4 bytes @ 0x40006404) - Data: 0A 0C 00 00  returns 0x00 (0001ms, 0840ms total)
T282C 009:713 JLINK_ReadMem (0x40006414, 0x0004 Bytes, ...) -- CPU_ReadMem(4 bytes @ 0x40006414) - Data: 00 00 00 00  returns 0x00 (0001ms, 0841ms total)
T282C 009:714 JLINK_ReadMem (0x40006418, 0x0004 Bytes, ...) -- CPU_ReadMem(4 bytes @ 0x40006418) - Data: 00 00 00 00  returns 0x00 (0001ms, 0842ms total)
T282C 009:715 JLINK_ReadMem (0x4000641C, 0x0004 Bytes, ...) -- CPU_ReadMem(4 bytes @ 0x4000641C) - Data: 00 00 23 01  returns 0x00 (0002ms, 0844ms total)
T282C 009:717 JLINK_ReadMem (0x40021000, 0x0004 Bytes, ...) -- CPU_ReadMem(4 bytes @ 0x40021000) - Data: 83 52 03 03  returns 0x00 (0001ms, 0845ms total)
T282C 009:718 JLINK_ReadMem (0x40021004, 0x0004 Bytes, ...) -- CPU_ReadMem(4 bytes @ 0x40021004) - Data: 0A 04 1D 00  returns 0x00 (0001ms, 0846ms total)
T282C 009:719 JLINK_ReadMem (0x40021020, 0x0004 Bytes, ...) -- CPU_ReadMem(4 bytes @ 0x40021020) - Data: 00 00 00 00  returns 0x00 (0001ms, 0847ms total)
T282C 009:721 JLINK_ReadMem (0x4002101C, 0x0004 Bytes, ...) -- CPU_ReadMem(4 bytes @ 0x4002101C) - Data: 00 00 00 00  returns 0x00 (0001ms, 0848ms total)
T282C 009:722 JLINK_ReadMem (0x40021010, 0x0004 Bytes, ...) -- CPU_ReadMem(4 bytes @ 0x40021010) - Data: 00 00 00 00  returns 0x00 (0001ms, 0849ms total)
T282C 009:723 JLINK_ReadMem (0x40006400, 0x001C Bytes, ...) -- CPU_ReadMem(28 bytes @ 0x40006400) - Data: 02 00 01 00 0A 0C 00 00 00 00 00 1C 00 00 00 00 ...  returns 0x00 (0002ms, 0851ms total)
T282C 009:725 JLINK_ReadMem (0x4000641C, 0x0004 Bytes, ...) -- CPU_ReadMem(4 bytes @ 0x4000641C) - Data: 00 00 23 01  returns 0x00 (0001ms, 0852ms total)
T282C 009:726 JLINK_ReadMem (0x40006580, 0x004C Bytes, ...) -- CPU_ReadMem(76 bytes @ 0x40006580) - Data: BA AB A3 52 3D 58 91 44 1A 55 54 55 6E B8 A1 83 ...  returns 0x00 (0001ms, 0853ms total)
T282C 009:728 JLINK_ReadMem (0x400065CC, 0x0004 Bytes, ...) -- CPU_ReadMem(4 bytes @ 0x400065CC) - Data: 37 5D 6E F7  returns 0x00 (0001ms, 0855ms total)
T282C 009:729 JLINK_ReadMem (0x40006600, 0x0004 Bytes, ...) -- CPU_ReadMem(4 bytes @ 0x40006600) - Data: 01 0E 1C 2A  returns 0x00 (0001ms, 0856ms total)
T282C 009:730 JLINK_ReadMem (0x40006604, 0x0004 Bytes, ...) -- CPU_ReadMem(4 bytes @ 0x40006604) - Data: 00 00 00 00  returns 0x00 (0001ms, 0857ms total)
T282C 009:731 JLINK_ReadMem (0x4000660C, 0x0004 Bytes, ...) -- CPU_ReadMem(4 bytes @ 0x4000660C) - Data: 00 00 00 00  returns 0x00 (0001ms, 0858ms total)
T282C 009:732 JLINK_ReadMem (0x40006614, 0x0004 Bytes, ...) -- CPU_ReadMem(4 bytes @ 0x40006614) - Data: 00 00 00 00  returns 0x00 (0002ms, 0860ms total)
T282C 009:734 JLINK_ReadMem (0x4000661C, 0x0004 Bytes, ...) -- CPU_ReadMem(4 bytes @ 0x4000661C) - Data: 00 00 00 00  returns 0x00 (0001ms, 0861ms total)
T282C 009:735 JLINK_ReadMem (0x40006640, 0x006C Bytes, ...) -- CPU_ReadMem(108 bytes @ 0x40006640) - Data: 00 00 00 00 00 00 00 00 75 45 0D 32 AD FE 2A A6 ...  returns 0x00 (0003ms, 0864ms total)
T282C 009:738 JLINK_ReadMem (0x400066AC, 0x0004 Bytes, ...) -- CPU_ReadMem(4 bytes @ 0x400066AC) - Data: EB 3B 3E 1B  returns 0x00 (0001ms, 0865ms total)
T282C 009:767 JLINK_ReadMem (0x08001AE0, 0x003C Bytes, ...) -- CPU_ReadMem(128 bytes @ 0x08001AC0) -- Updating C cache (128 bytes @ 0x08001AC0) -- Read from C cache (60 bytes @ 0x08001AE0) - Data: 08 B5 4F F4 A0 60 FF F7 CB F9 FF F7 69 FF FF F7 ...  returns 0x00 (0003ms, 0868ms total)
T282C 009:856 JLINK_ReadMem (0x08001958, 0x003C Bytes, ...) -- CPU_ReadMem(128 bytes @ 0x08001940) -- Updating C cache (128 bytes @ 0x08001940) -- Read from C cache (60 bytes @ 0x08001958) - Data: 00 20 4F F0 7E 52 CD E9 00 20 04 EB C4 01 01 EB ...  returns 0x00 (0003ms, 0871ms total)
T39B8 013:163 JLINK_Go() -- CPU_WriteMem(4 bytes @ 0xE0002008) (0004ms, 0875ms total)
T39B8 013:268 JLINK_IsHalted()  returns FALSE (0001ms, 0876ms total)
T39B8 013:370 JLINK_IsHalted()  returns FALSE (0001ms, 0876ms total)
T39B8 013:472 JLINK_IsHalted()  returns FALSE (0001ms, 0876ms total)
T39B8 013:574 JLINK_IsHalted()  returns FALSE (0001ms, 0876ms total)
T39B8 013:676 JLINK_ReadMemU32(0xE0001004, 0x0001 Items, ...) -- CPU is running -- CPU_ReadMem(4 bytes @ 0xE0001004) - Data: 78 93 32 02  returns 0x01 (0001ms, 0876ms total)
T282C 013:682 JLINK_ReadMem (0x20000024, 0x0004 Bytes, ...) -- CPU is running -- CPU_ReadMem(4 bytes @ 0x20000024) - Data: 64 00 00 00  returns 0x00 (0001ms, 0877ms total)
T282C 013:683 JLINK_ReadMem (0x40006400, 0x001C Bytes, ...) -- CPU is running -- CPU_ReadMem(28 bytes @ 0x40006400) - Data: 02 00 01 00 0A 0C 00 00 00 00 00 1C 00 00 00 00 ...  returns 0x00 (0002ms, 0879ms total)
T282C 013:685 JLINK_ReadMem (0x4000641C, 0x0004 Bytes, ...) -- CPU is running -- CPU_ReadMem(4 bytes @ 0x4000641C) - Data: 00 00 23 01  returns 0x00 (0001ms, 0880ms total)
T282C 013:686 JLINK_ReadMem (0x40006580, 0x004C Bytes, ...) -- CPU is running -- CPU_ReadMem(76 bytes @ 0x40006580) - Data: BA AB A3 52 3D 58 91 44 1A 55 54 55 6E B8 A1 83 ...  returns 0x00 (0003ms, 0883ms total)
T282C 013:689 JLINK_ReadMem (0x400065CC, 0x0004 Bytes, ...) -- CPU is running -- CPU_ReadMem(4 bytes @ 0x400065CC) - Data: 37 5D 6E F7  returns 0x00 (0001ms, 0884ms total)
T282C 013:690 JLINK_ReadMem (0x40006600, 0x0004 Bytes, ...) -- CPU is running -- CPU_ReadMem(4 bytes @ 0x40006600) - Data: 01 0E 1C 2A  returns 0x00 (0002ms, 0886ms total)
T282C 013:692 JLINK_ReadMem (0x40006604, 0x0004 Bytes, ...) -- CPU is running -- CPU_ReadMem(4 bytes @ 0x40006604) - Data: 00 00 00 00  returns 0x00 (0001ms, 0887ms total)
T282C 013:693 JLINK_ReadMem (0x4000660C, 0x0004 Bytes, ...) -- CPU is running -- CPU_ReadMem(4 bytes @ 0x4000660C) - Data: 00 00 00 00  returns 0x00 (0001ms, 0888ms total)
T282C 013:694 JLINK_ReadMem (0x40006614, 0x0004 Bytes, ...) -- CPU is running -- CPU_ReadMem(4 bytes @ 0x40006614) - Data: 00 00 00 00  returns 0x00 (0002ms, 0890ms total)
T282C 013:696 JLINK_ReadMem (0x4000661C, 0x0004 Bytes, ...) -- CPU is running -- CPU_ReadMem(4 bytes @ 0x4000661C) - Data: 00 00 00 00  returns 0x00 (0001ms, 0891ms total)
T282C 013:697 JLINK_ReadMem (0x40006640, 0x006C Bytes, ...) -- CPU is running -- CPU_ReadMem(108 bytes @ 0x40006640) - Data: 00 00 00 00 00 00 00 00 75 45 0D 32 AD FE 2A A6 ...  returns 0x00 (0002ms, 0893ms total)
T282C 013:700 JLINK_ReadMem (0x400066AC, 0x0004 Bytes, ...) -- CPU is running -- CPU_ReadMem(4 bytes @ 0x400066AC) - Data: EB 3B 3E 1B  returns 0x00 (0001ms, 0894ms total)
T39B8 013:707 JLINK_IsHalted()  returns FALSE (0001ms, 0895ms total)
T39B8 013:809 JLINK_IsHalted()  returns FALSE (0001ms, 0895ms total)
T39B8 013:911 JLINK_IsHalted()  returns FALSE (0001ms, 0895ms total)
T39B8 014:013 JLINK_IsHalted()  returns FALSE (0001ms, 0895ms total)
T39B8 014:115 JLINK_IsHalted()  returns FALSE (0002ms, 0896ms total)
T39B8 014:218 JLINK_ReadMemU32(0xE0001004, 0x0001 Items, ...) -- CPU is running -- CPU_ReadMem(4 bytes @ 0xE0001004) - Data: AE 3C 88 04  returns 0x01 (0002ms, 0896ms total)
T282C 014:224 JLINK_ReadMem (0x20000024, 0x0004 Bytes, ...) -- CPU is running -- CPU_ReadMem(4 bytes @ 0x20000024) - Data: 64 00 00 00  returns 0x00 (0001ms, 0897ms total)
T282C 014:225 JLINK_ReadMem (0x40006400, 0x001C Bytes, ...) -- CPU is running -- CPU_ReadMem(28 bytes @ 0x40006400) - Data: 04 00 01 00 08 0C 00 00 00 00 00 1C 00 00 00 00 ...  returns 0x00 (0002ms, 0899ms total)
T282C 014:227 JLINK_ReadMem (0x4000641C, 0x0004 Bytes, ...) -- CPU is running -- CPU_ReadMem(4 bytes @ 0x4000641C) - Data: 05 00 12 00  returns 0x00 (0001ms, 0900ms total)
T282C 014:228 JLINK_ReadMem (0x40006580, 0x004C Bytes, ...) -- CPU is running -- CPU_ReadMem(76 bytes @ 0x40006580) - Data: BA AB A3 52 3D 58 91 44 1A 55 54 55 6E B8 A1 83 ...  returns 0x00 (0002ms, 0902ms total)
T282C 014:230 JLINK_ReadMem (0x400065CC, 0x0004 Bytes, ...) -- CPU is running -- CPU_ReadMem(4 bytes @ 0x400065CC) - Data: 37 5D 6E F7  returns 0x00 (0002ms, 0904ms total)
T282C 014:232 JLINK_ReadMem (0x40006600, 0x0004 Bytes, ...) -- CPU is running -- CPU_ReadMem(4 bytes @ 0x40006600) - Data: 00 0E 1C 2A  returns 0x00 (0001ms, 0905ms total)
T282C 014:234 JLINK_ReadMem (0x40006604, 0x0004 Bytes, ...) -- CPU is running -- CPU_ReadMem(4 bytes @ 0x40006604) - Data: 00 00 00 00  returns 0x00 (0001ms, 0906ms total)
T282C 014:235 JLINK_ReadMem (0x4000660C, 0x0004 Bytes, ...) -- CPU is running -- CPU_ReadMem(4 bytes @ 0x4000660C) - Data: 01 00 00 00  returns 0x00 (0002ms, 0908ms total)
T282C 014:237 JLINK_ReadMem (0x40006614, 0x0004 Bytes, ...) -- CPU is running -- CPU_ReadMem(4 bytes @ 0x40006614) - Data: 00 00 00 00  returns 0x00 (0001ms, 0909ms total)
T282C 014:238 JLINK_ReadMem (0x4000661C, 0x0004 Bytes, ...) -- CPU is running -- CPU_ReadMem(4 bytes @ 0x4000661C) - Data: 01 00 00 00  returns 0x00 (0001ms, 0910ms total)
T282C 014:239 JLINK_ReadMem (0x40006640, 0x006C Bytes, ...) -- CPU is running -- CPU_ReadMem(108 bytes @ 0x40006640) - Data: 00 00 00 00 00 00 00 00 75 45 0D 32 AD FE 2A A6 ...  returns 0x00 (0002ms, 0912ms total)
T282C 014:241 JLINK_ReadMem (0x400066AC, 0x0004 Bytes, ...) -- CPU is running -- CPU_ReadMem(4 bytes @ 0x400066AC) - Data: EB 3B 3E 1B  returns 0x00 (0002ms, 0914ms total)
T39B8 014:276 JLINK_IsHalted()  returns FALSE (0001ms, 0915ms total)
T39B8 014:378 JLINK_IsHalted()  returns FALSE (0001ms, 0915ms total)
T39B8 014:480 JLINK_IsHalted()  returns FALSE (0001ms, 0915ms total)
T39B8 014:582 JLINK_IsHalted()  returns FALSE (0001ms, 0915ms total)
T39B8 014:684 JLINK_IsHalted()  returns FALSE (0001ms, 0915ms total)
T39B8 014:786 JLINK_ReadMemU32(0xE0001004, 0x0001 Items, ...) -- CPU is running -- CPU_ReadMem(4 bytes @ 0xE0001004) - Data: 3E DD F9 06  returns 0x01 (0001ms, 0915ms total)
T282C 014:788 JLINK_ReadMem (0x20000024, 0x0004 Bytes, ...) -- CPU is running -- CPU_ReadMem(4 bytes @ 0x20000024) - Data: 64 00 00 00  returns 0x00 (0002ms, 0917ms total)
T282C 014:790 JLINK_ReadMem (0x40006400, 0x001C Bytes, ...) -- CPU is running -- CPU_ReadMem(28 bytes @ 0x40006400) - Data: 04 00 01 00 08 0C 00 00 00 00 00 1C 00 00 00 00 ...  returns 0x00 (0001ms, 0918ms total)
T282C 014:791 JLINK_ReadMem (0x4000641C, 0x0004 Bytes, ...) -- CPU is running -- CPU_ReadMem(4 bytes @ 0x4000641C) - Data: 05 00 12 00  returns 0x00 (0002ms, 0920ms total)
T282C 014:793 JLINK_ReadMem (0x40006580, 0x004C Bytes, ...) -- CPU is running -- CPU_ReadMem(76 bytes @ 0x40006580) - Data: BA AB A3 52 3D 58 91 44 1A 55 54 55 6E B8 A1 83 ...  returns 0x00 (0002ms, 0922ms total)
T282C 014:795 JLINK_ReadMem (0x400065CC, 0x0004 Bytes, ...) -- CPU is running -- CPU_ReadMem(4 bytes @ 0x400065CC) - Data: 37 5D 6E F7  returns 0x00 (0001ms, 0923ms total)
T282C 014:796 JLINK_ReadMem (0x40006600, 0x0004 Bytes, ...) -- CPU is running -- CPU_ReadMem(4 bytes @ 0x40006600) - Data: 00 0E 1C 2A  returns 0x00 (0002ms, 0925ms total)
T282C 014:798 JLINK_ReadMem (0x40006604, 0x0004 Bytes, ...) -- CPU is running -- CPU_ReadMem(4 bytes @ 0x40006604) - Data: 00 00 00 00  returns 0x00 (0001ms, 0926ms total)
T282C 014:799 JLINK_ReadMem (0x4000660C, 0x0004 Bytes, ...) -- CPU is running -- CPU_ReadMem(4 bytes @ 0x4000660C) - Data: 01 00 00 00  returns 0x00 (0001ms, 0927ms total)
T282C 014:800 JLINK_ReadMem (0x40006614, 0x0004 Bytes, ...) -- CPU is running -- CPU_ReadMem(4 bytes @ 0x40006614) - Data: 00 00 00 00  returns 0x00 (0002ms, 0929ms total)
T282C 014:802 JLINK_ReadMem (0x4000661C, 0x0004 Bytes, ...) -- CPU is running -- CPU_ReadMem(4 bytes @ 0x4000661C) - Data: 01 00 00 00  returns 0x00 (0001ms, 0930ms total)
T282C 014:803 JLINK_ReadMem (0x40006640, 0x006C Bytes, ...) -- CPU is running -- CPU_ReadMem(108 bytes @ 0x40006640) - Data: 00 00 00 00 00 00 00 00 75 45 0D 32 AD FE 2A A6 ...  returns 0x00 (0002ms, 0932ms total)
T282C 014:805 JLINK_ReadMem (0x400066AC, 0x0004 Bytes, ...) -- CPU is running -- CPU_ReadMem(4 bytes @ 0x400066AC) - Data: EB 3B 3E 1B  returns 0x00 (0001ms, 0933ms total)
T39B8 014:810 JLINK_IsHalted()  returns FALSE (0001ms, 0934ms total)
T39B8 014:912 JLINK_IsHalted()  returns FALSE (0001ms, 0934ms total)
T39B8 015:014 JLINK_IsHalted()  returns FALSE (0001ms, 0934ms total)
T39B8 015:116 JLINK_IsHalted()  returns FALSE (0001ms, 0934ms total)
T39B8 015:218 JLINK_IsHalted()  returns FALSE (0001ms, 0934ms total)
T39B8 015:321 JLINK_ReadMemU32(0xE0001004, 0x0001 Items, ...) -- CPU is running -- CPU_ReadMem(4 bytes @ 0xE0001004) - Data: 37 AE 47 09  returns 0x01 (0002ms, 0935ms total)
T282C 015:323 JLINK_ReadMem (0x20000024, 0x0004 Bytes, ...) -- CPU is running -- CPU_ReadMem(4 bytes @ 0x20000024) - Data: 64 00 00 00  returns 0x00 (0001ms, 0936ms total)
T282C 015:324 JLINK_ReadMem (0x40006400, 0x001C Bytes, ...) -- CPU is running -- CPU_ReadMem(28 bytes @ 0x40006400) - Data: 04 00 01 00 08 0C 00 00 00 00 00 1C 00 00 00 00 ...  returns 0x00 (0002ms, 0938ms total)
T282C 015:326 JLINK_ReadMem (0x4000641C, 0x0004 Bytes, ...) -- CPU is running -- CPU_ReadMem(4 bytes @ 0x4000641C) - Data: 05 00 12 00  returns 0x00 (0001ms, 0939ms total)
T282C 015:327 JLINK_ReadMem (0x40006580, 0x004C Bytes, ...) -- CPU is running -- CPU_ReadMem(76 bytes @ 0x40006580) - Data: 00 00 00 40 38 58 91 44 07 D0 01 63 07 D0 07 D0 ...  returns 0x00 (0002ms, 0941ms total)
T282C 015:329 JLINK_ReadMem (0x400065CC, 0x0004 Bytes, ...) -- CPU is running -- CPU_ReadMem(4 bytes @ 0x400065CC) - Data: 37 5D 6E F7  returns 0x00 (0001ms, 0942ms total)
T282C 015:330 JLINK_ReadMem (0x40006600, 0x0004 Bytes, ...) -- CPU is running -- CPU_ReadMem(4 bytes @ 0x40006600) - Data: 00 0E 1C 2A  returns 0x00 (0002ms, 0944ms total)
T282C 015:332 JLINK_ReadMem (0x40006604, 0x0004 Bytes, ...) -- CPU is running -- CPU_ReadMem(4 bytes @ 0x40006604) - Data: 00 00 00 00  returns 0x00 (0001ms, 0945ms total)
T282C 015:333 JLINK_ReadMem (0x4000660C, 0x0004 Bytes, ...) -- CPU is running -- CPU_ReadMem(4 bytes @ 0x4000660C) - Data: 01 00 00 00  returns 0x00 (0001ms, 0946ms total)
T282C 015:334 JLINK_ReadMem (0x40006614, 0x0004 Bytes, ...) -- CPU is running -- CPU_ReadMem(4 bytes @ 0x40006614) - Data: 00 00 00 00  returns 0x00 (0001ms, 0947ms total)
T282C 015:335 JLINK_ReadMem (0x4000661C, 0x0004 Bytes, ...) -- CPU is running -- CPU_ReadMem(4 bytes @ 0x4000661C) - Data: 01 00 00 00  returns 0x00 (0002ms, 0949ms total)
T282C 015:337 JLINK_ReadMem (0x40006640, 0x006C Bytes, ...) -- CPU is running -- CPU_ReadMem(108 bytes @ 0x40006640) - Data: 00 00 00 00 00 00 00 00 75 45 0D 32 AD FE 2A A6 ...  returns 0x00 (0002ms, 0951ms total)
T282C 015:339 JLINK_ReadMem (0x400066AC, 0x0004 Bytes, ...) -- CPU is running -- CPU_ReadMem(4 bytes @ 0x400066AC) - Data: EB 3B 3E 1B  returns 0x00 (0001ms, 0952ms total)
T39B8 015:353 JLINK_IsHalted()  returns FALSE (0001ms, 0953ms total)
T39B8 015:455 JLINK_IsHalted()  returns FALSE (0001ms, 0953ms total)
T39B8 015:557 JLINK_IsHalted()  returns FALSE (0001ms, 0953ms total)
T39B8 015:659 JLINK_IsHalted()  returns FALSE (0001ms, 0953ms total)
T39B8 015:761 JLINK_IsHalted()  returns FALSE (0001ms, 0953ms total)
T39B8 015:863 JLINK_ReadMemU32(0xE0001004, 0x0001 Items, ...) -- CPU is running -- CPU_ReadMem(4 bytes @ 0xE0001004) - Data: B9 C8 9C 0B  returns 0x01 (0001ms, 0953ms total)
T282C 015:864 JLINK_ReadMem (0x20000024, 0x0004 Bytes, ...) -- CPU is running -- CPU_ReadMem(4 bytes @ 0x20000024) - Data: 64 00 00 00  returns 0x00 (0001ms, 0954ms total)
T282C 015:866 JLINK_ReadMem (0x40006400, 0x001C Bytes, ...) -- CPU is running -- CPU_ReadMem(28 bytes @ 0x40006400) - Data: 04 00 01 00 08 0C 00 00 00 00 00 1C 00 00 00 00 ...  returns 0x00 (0001ms, 0955ms total)
T282C 015:867 JLINK_ReadMem (0x4000641C, 0x0004 Bytes, ...) -- CPU is running -- CPU_ReadMem(4 bytes @ 0x4000641C) - Data: 05 00 12 00  returns 0x00 (0002ms, 0957ms total)
T282C 015:869 JLINK_ReadMem (0x40006580, 0x004C Bytes, ...) -- CPU is running -- CPU_ReadMem(76 bytes @ 0x40006580) - Data: 00 00 00 40 38 58 91 44 07 D0 FE C7 07 D0 07 D0 ...  returns 0x00 (0002ms, 0959ms total)
T282C 015:871 JLINK_ReadMem (0x400065CC, 0x0004 Bytes, ...) -- CPU is running -- CPU_ReadMem(4 bytes @ 0x400065CC) - Data: 37 5D 6E F7  returns 0x00 (0001ms, 0960ms total)
T282C 015:872 JLINK_ReadMem (0x40006600, 0x0004 Bytes, ...) -- CPU is running -- CPU_ReadMem(4 bytes @ 0x40006600) - Data: 00 0E 1C 2A  returns 0x00 (0001ms, 0961ms total)
T282C 015:873 JLINK_ReadMem (0x40006604, 0x0004 Bytes, ...) -- CPU is running -- CPU_ReadMem(4 bytes @ 0x40006604) - Data: 00 00 00 00  returns 0x00 (0002ms, 0963ms total)
T282C 015:875 JLINK_ReadMem (0x4000660C, 0x0004 Bytes, ...) -- CPU is running -- CPU_ReadMem(4 bytes @ 0x4000660C) - Data: 01 00 00 00  returns 0x00 (0001ms, 0964ms total)
T282C 015:876 JLINK_ReadMem (0x40006614, 0x0004 Bytes, ...) -- CPU is running -- CPU_ReadMem(4 bytes @ 0x40006614) - Data: 00 00 00 00  returns 0x00 (0001ms, 0965ms total)
T282C 015:877 JLINK_ReadMem (0x4000661C, 0x0004 Bytes, ...) -- CPU is running -- CPU_ReadMem(4 bytes @ 0x4000661C) - Data: 01 00 00 00  returns 0x00 (0001ms, 0966ms total)
T282C 015:878 JLINK_ReadMem (0x40006640, 0x006C Bytes, ...) -- CPU is running -- CPU_ReadMem(108 bytes @ 0x40006640) - Data: 00 00 00 00 00 00 00 00 75 45 0D 32 AD FE 2A A6 ...  returns 0x00 (0003ms, 0969ms total)
T282C 015:881 JLINK_ReadMem (0x400066AC, 0x0004 Bytes, ...) -- CPU is running -- CPU_ReadMem(4 bytes @ 0x400066AC) - Data: EB 3B 3E 1B  returns 0x00 (0001ms, 0970ms total)
T39B8 015:888 JLINK_IsHalted()  returns FALSE (0001ms, 0971ms total)
T39B8 015:990 JLINK_IsHalted()  returns FALSE (0002ms, 0972ms total)
T39B8 016:093 JLINK_IsHalted()  returns FALSE (0001ms, 0971ms total)
T39B8 016:195 JLINK_IsHalted()  returns FALSE (0001ms, 0971ms total)
T39B8 016:297 JLINK_IsHalted()  returns FALSE (0001ms, 0971ms total)
T39B8 016:400 JLINK_ReadMemU32(0xE0001004, 0x0001 Items, ...) -- CPU is running -- CPU_ReadMem(4 bytes @ 0xE0001004) - Data: A2 66 ED 0D  returns 0x01 (0002ms, 0972ms total)
T282C 016:402 JLINK_ReadMem (0x20000024, 0x0004 Bytes, ...) -- CPU is running -- CPU_ReadMem(4 bytes @ 0x20000024) - Data: 64 00 00 00  returns 0x00 (0001ms, 0973ms total)
T282C 016:404 JLINK_ReadMem (0x40006400, 0x001C Bytes, ...) -- CPU is running -- CPU_ReadMem(28 bytes @ 0x40006400) - Data: 04 00 01 00 08 0C 00 00 00 00 00 1C 00 00 00 00 ...  returns 0x00 (0001ms, 0974ms total)
T282C 016:405 JLINK_ReadMem (0x4000641C, 0x0004 Bytes, ...) -- CPU is running -- CPU_ReadMem(4 bytes @ 0x4000641C) - Data: 05 00 12 00  returns 0x00 (0001ms, 0975ms total)
T282C 016:406 JLINK_ReadMem (0x40006580, 0x004C Bytes, ...) -- CPU is running -- CPU_ReadMem(76 bytes @ 0x40006580) - Data: 00 00 00 40 38 58 91 44 07 D0 01 E5 07 D0 07 D0 ...  returns 0x00 (0002ms, 0977ms total)
T282C 016:408 JLINK_ReadMem (0x400065CC, 0x0004 Bytes, ...) -- CPU is running -- CPU_ReadMem(4 bytes @ 0x400065CC) - Data: 37 5D 6E F7  returns 0x00 (0002ms, 0979ms total)
T282C 016:410 JLINK_ReadMem (0x40006600, 0x0004 Bytes, ...) -- CPU is running -- CPU_ReadMem(4 bytes @ 0x40006600) - Data: 00 0E 1C 2A  returns 0x00 (0001ms, 0980ms total)
T282C 016:411 JLINK_ReadMem (0x40006604, 0x0004 Bytes, ...) -- CPU is running -- CPU_ReadMem(4 bytes @ 0x40006604) - Data: 00 00 00 00  returns 0x00 (0001ms, 0981ms total)
T282C 016:412 JLINK_ReadMem (0x4000660C, 0x0004 Bytes, ...) -- CPU is running -- CPU_ReadMem(4 bytes @ 0x4000660C) - Data: 01 00 00 00  returns 0x00 (0002ms, 0983ms total)
T282C 016:414 JLINK_ReadMem (0x40006614, 0x0004 Bytes, ...) -- CPU is running -- CPU_ReadMem(4 bytes @ 0x40006614) - Data: 00 00 00 00  returns 0x00 (0001ms, 0984ms total)
T282C 016:415 JLINK_ReadMem (0x4000661C, 0x0004 Bytes, ...) -- CPU is running -- CPU_ReadMem(4 bytes @ 0x4000661C) - Data: 01 00 00 00  returns 0x00 (0001ms, 0985ms total)
T282C 016:416 JLINK_ReadMem (0x40006640, 0x006C Bytes, ...) -- CPU is running -- CPU_ReadMem(108 bytes @ 0x40006640) - Data: 00 00 00 00 00 00 00 00 75 45 0D 32 AD FE 2A A6 ...  returns 0x00 (0003ms, 0988ms total)
T282C 016:419 JLINK_ReadMem (0x400066AC, 0x0004 Bytes, ...) -- CPU is running -- CPU_ReadMem(4 bytes @ 0x400066AC) - Data: EB 3B 3E 1B  returns 0x00 (0001ms, 0989ms total)
T39B8 016:427 JLINK_IsHalted()  returns FALSE (0002ms, 0991ms total)
T39B8 016:529 JLINK_IsHalted()  returns FALSE (0001ms, 0990ms total)
T39B8 016:631 JLINK_IsHalted()  returns FALSE (0001ms, 0990ms total)
T39B8 016:733 JLINK_IsHalted()  returns FALSE (0001ms, 0990ms total)
T39B8 016:835 JLINK_IsHalted()  returns FALSE (0001ms, 0990ms total)
T39B8 016:937 JLINK_ReadMemU32(0xE0001004, 0x0001 Items, ...) -- CPU is running -- CPU_ReadMem(4 bytes @ 0xE0001004) - Data: DF B2 3C 10  returns 0x01 (0001ms, 0990ms total)
T282C 016:942 JLINK_ReadMem (0x20000024, 0x0004 Bytes, ...) -- CPU is running -- CPU_ReadMem(4 bytes @ 0x20000024) - Data: 64 00 00 00  returns 0x00 (0002ms, 0992ms total)
T282C 016:944 JLINK_ReadMem (0x40006400, 0x001C Bytes, ...) -- CPU is running -- CPU_ReadMem(28 bytes @ 0x40006400) - Data: 04 00 01 00 08 0C 00 00 00 00 00 1C 00 00 00 00 ...  returns 0x00 (0001ms, 0993ms total)
T282C 016:945 JLINK_ReadMem (0x4000641C, 0x0004 Bytes, ...) -- CPU is running -- CPU_ReadMem(4 bytes @ 0x4000641C) - Data: 05 00 12 00  returns 0x00 (0002ms, 0995ms total)
T282C 016:947 JLINK_ReadMem (0x40006580, 0x004C Bytes, ...) -- CPU is running -- CPU_ReadMem(76 bytes @ 0x40006580) - Data: 00 00 00 40 38 58 91 44 07 D0 FF 39 07 D0 07 D0 ...  returns 0x00 (0002ms, 0997ms total)
T282C 016:949 JLINK_ReadMem (0x400065CC, 0x0004 Bytes, ...) -- CPU is running -- CPU_ReadMem(4 bytes @ 0x400065CC) - Data: 37 5D 6E F7  returns 0x00 (0001ms, 0998ms total)
T282C 016:950 JLINK_ReadMem (0x40006600, 0x0004 Bytes, ...) -- CPU is running -- CPU_ReadMem(4 bytes @ 0x40006600) - Data: 00 0E 1C 2A  returns 0x00 (0001ms, 0999ms total)
T282C 016:952 JLINK_ReadMem (0x40006604, 0x0004 Bytes, ...) -- CPU is running -- CPU_ReadMem(4 bytes @ 0x40006604) - Data: 00 00 00 00  returns 0x00 (0001ms, 1001ms total)
T282C 016:953 JLINK_ReadMem (0x4000660C, 0x0004 Bytes, ...) -- CPU is running -- CPU_ReadMem(4 bytes @ 0x4000660C) - Data: 01 00 00 00  returns 0x00 (0001ms, 1002ms total)
T282C 016:954 JLINK_ReadMem (0x40006614, 0x0004 Bytes, ...) -- CPU is running -- CPU_ReadMem(4 bytes @ 0x40006614) - Data: 00 00 00 00  returns 0x00 (0001ms, 1003ms total)
T282C 016:956 JLINK_ReadMem (0x4000661C, 0x0004 Bytes, ...) -- CPU is running -- CPU_ReadMem(4 bytes @ 0x4000661C) - Data: 01 00 00 00  returns 0x00 (0001ms, 1005ms total)
T282C 016:957 JLINK_ReadMem (0x40006640, 0x006C Bytes, ...) -- CPU is running -- CPU_ReadMem(108 bytes @ 0x40006640) - Data: 00 00 00 00 00 00 00 00 75 45 0D 32 AD FE 2A A6 ...  returns 0x00 (0002ms, 1007ms total)
T282C 016:959 JLINK_ReadMem (0x400066AC, 0x0004 Bytes, ...) -- CPU is running -- CPU_ReadMem(4 bytes @ 0x400066AC) - Data: EB 3B 3E 1B  returns 0x00 (0002ms, 1009ms total)
T39B8 016:967 JLINK_IsHalted()  returns FALSE (0001ms, 1010ms total)
T39B8 017:069 JLINK_IsHalted()  returns FALSE (0001ms, 1010ms total)
T39B8 017:171 JLINK_IsHalted()  returns FALSE (0001ms, 1010ms total)
T39B8 017:273 JLINK_IsHalted()  returns FALSE (0001ms, 1010ms total)
T39B8 017:375 JLINK_IsHalted()  returns FALSE (0001ms, 1010ms total)
T39B8 017:478 JLINK_ReadMemU32(0xE0001004, 0x0001 Items, ...) -- CPU is running -- CPU_ReadMem(4 bytes @ 0xE0001004) - Data: FA 1A 91 12  returns 0x01 (0002ms, 1011ms total)
T282C 017:480 JLINK_ReadMem (0x20000024, 0x0004 Bytes, ...) -- CPU is running -- CPU_ReadMem(4 bytes @ 0x20000024) - Data: 64 00 00 00  returns 0x00 (0001ms, 1012ms total)
T282C 017:481 JLINK_ReadMem (0x40006400, 0x001C Bytes, ...) -- CPU is running -- CPU_ReadMem(28 bytes @ 0x40006400) - Data: 04 00 01 00 08 0C 00 00 00 00 00 1C 00 00 00 00 ...  returns 0x00 (0002ms, 1014ms total)
T282C 017:483 JLINK_ReadMem (0x4000641C, 0x0004 Bytes, ...) -- CPU is running -- CPU_ReadMem(4 bytes @ 0x4000641C) - Data: 05 00 12 00  returns 0x00 (0001ms, 1015ms total)
T282C 017:485 JLINK_ReadMem (0x40006580, 0x004C Bytes, ...) -- CPU is running -- CPU_ReadMem(76 bytes @ 0x40006580) - Data: 00 00 00 40 38 58 91 44 07 D0 FF DF 07 D0 07 D0 ...  returns 0x00 (0002ms, 1018ms total)
T282C 017:487 JLINK_ReadMem (0x400065CC, 0x0004 Bytes, ...) -- CPU is running -- CPU_ReadMem(4 bytes @ 0x400065CC) - Data: 37 5D 6E F7  returns 0x00 (0001ms, 1019ms total)
T282C 017:488 JLINK_ReadMem (0x40006600, 0x0004 Bytes, ...) -- CPU is running -- CPU_ReadMem(4 bytes @ 0x40006600) - Data: 00 0E 1C 2A  returns 0x00 (0001ms, 1020ms total)
T282C 017:489 JLINK_ReadMem (0x40006604, 0x0004 Bytes, ...) -- CPU is running -- CPU_ReadMem(4 bytes @ 0x40006604) - Data: 00 00 00 00  returns 0x00 (0002ms, 1022ms total)
T282C 017:491 JLINK_ReadMem (0x4000660C, 0x0004 Bytes, ...) -- CPU is running -- CPU_ReadMem(4 bytes @ 0x4000660C) - Data: 01 00 00 00  returns 0x00 (0001ms, 1023ms total)
T282C 017:492 JLINK_ReadMem (0x40006614, 0x0004 Bytes, ...) -- CPU is running -- CPU_ReadMem(4 bytes @ 0x40006614) - Data: 00 00 00 00  returns 0x00 (0001ms, 1024ms total)
T282C 017:493 JLINK_ReadMem (0x4000661C, 0x0004 Bytes, ...) -- CPU is running -- CPU_ReadMem(4 bytes @ 0x4000661C) - Data: 01 00 00 00  returns 0x00 (0002ms, 1026ms total)
T282C 017:495 JLINK_ReadMem (0x40006640, 0x006C Bytes, ...) -- CPU is running -- CPU_ReadMem(108 bytes @ 0x40006640) - Data: 00 00 00 00 00 00 00 00 75 45 0D 32 AD FE 2A A6 ...  returns 0x00 (0002ms, 1028ms total)
T282C 017:497 JLINK_ReadMem (0x400066AC, 0x0004 Bytes, ...) -- CPU is running -- CPU_ReadMem(4 bytes @ 0x400066AC) - Data: EB 3B 3E 1B  returns 0x00 (0002ms, 1030ms total)
T39B8 017:505 JLINK_IsHalted()  returns FALSE (0002ms, 1032ms total)
T39B8 017:608 JLINK_IsHalted()  returns FALSE (0001ms, 1031ms total)
T39B8 017:710 JLINK_IsHalted()  returns FALSE (0001ms, 1031ms total)
T39B8 017:812 JLINK_IsHalted()  returns FALSE (0001ms, 1031ms total)
T39B8 017:914 JLINK_IsHalted()  returns FALSE (0001ms, 1031ms total)
T39B8 018:016 JLINK_ReadMemU32(0xE0001004, 0x0001 Items, ...) -- CPU is running -- CPU_ReadMem(4 bytes @ 0xE0001004) - Data: 91 F2 E1 14  returns 0x01 (0001ms, 1031ms total)
T282C 018:020 JLINK_ReadMem (0x20000024, 0x0004 Bytes, ...) -- CPU is running -- CPU_ReadMem(4 bytes @ 0x20000024) - Data: 64 00 00 00  returns 0x00 (0002ms, 1033ms total)
T282C 018:022 JLINK_ReadMem (0x40006400, 0x001C Bytes, ...) -- CPU is running -- CPU_ReadMem(28 bytes @ 0x40006400) - Data: 04 00 01 00 08 0C 00 00 00 00 00 1C 00 00 00 00 ...  returns 0x00 (0002ms, 1035ms total)
T282C 018:024 JLINK_ReadMem (0x4000641C, 0x0004 Bytes, ...) -- CPU is running -- CPU_ReadMem(4 bytes @ 0x4000641C) - Data: 05 00 12 00  returns 0x00 (0001ms, 1036ms total)
T282C 018:025 JLINK_ReadMem (0x40006580, 0x004C Bytes, ...) -- CPU is running -- CPU_ReadMem(76 bytes @ 0x40006580) - Data: 00 00 00 40 38 58 91 44 07 D0 00 E3 07 D0 07 D0 ...  returns 0x00 (0002ms, 1038ms total)
T282C 018:027 JLINK_ReadMem (0x400065CC, 0x0004 Bytes, ...) -- CPU is running -- CPU_ReadMem(4 bytes @ 0x400065CC) - Data: 37 5D 6E F7  returns 0x00 (0001ms, 1039ms total)
T282C 018:028 JLINK_ReadMem (0x40006600, 0x0004 Bytes, ...) -- CPU is running -- CPU_ReadMem(4 bytes @ 0x40006600) - Data: 00 0E 1C 2A  returns 0x00 (0002ms, 1041ms total)
T282C 018:030 JLINK_ReadMem (0x40006604, 0x0004 Bytes, ...) -- CPU is running -- CPU_ReadMem(4 bytes @ 0x40006604) - Data: 00 00 00 00  returns 0x00 (0001ms, 1042ms total)
T282C 018:031 JLINK_ReadMem (0x4000660C, 0x0004 Bytes, ...) -- CPU is running -- CPU_ReadMem(4 bytes @ 0x4000660C) - Data: 01 00 00 00  returns 0x00 (0001ms, 1043ms total)
T282C 018:033 JLINK_ReadMem (0x40006614, 0x0004 Bytes, ...) -- CPU is running -- CPU_ReadMem(4 bytes @ 0x40006614) - Data: 00 00 00 00  returns 0x00 (0001ms, 1045ms total)
T282C 018:034 JLINK_ReadMem (0x4000661C, 0x0004 Bytes, ...) -- CPU is running -- CPU_ReadMem(4 bytes @ 0x4000661C) - Data: 01 00 00 00  returns 0x00 (0001ms, 1046ms total)
T282C 018:035 JLINK_ReadMem (0x40006640, 0x006C Bytes, ...) -- CPU is running -- CPU_ReadMem(108 bytes @ 0x40006640) - Data: 00 00 00 00 00 00 00 00 75 45 0D 32 AD FE 2A A6 ...  returns 0x00 (0003ms, 1049ms total)
T282C 018:038 JLINK_ReadMem (0x400066AC, 0x0004 Bytes, ...) -- CPU is running -- CPU_ReadMem(4 bytes @ 0x400066AC) - Data: EB 3B 3E 1B  returns 0x00 (0001ms, 1050ms total)
T39B8 018:045 JLINK_IsHalted()  returns FALSE (0002ms, 1052ms total)
T39B8 018:148 JLINK_IsHalted()  returns FALSE (0001ms, 1051ms total)
T39B8 018:250 JLINK_IsHalted()  returns FALSE (0001ms, 1051ms total)
T39B8 018:352 JLINK_IsHalted()  returns FALSE (0001ms, 1051ms total)
T39B8 018:454 JLINK_IsHalted()  returns FALSE (0001ms, 1051ms total)
T39B8 018:557 JLINK_ReadMemU32(0xE0001004, 0x0001 Items, ...) -- CPU is running -- CPU_ReadMem(4 bytes @ 0xE0001004) - Data: 21 3B 36 17  returns 0x01 (0002ms, 1052ms total)
T282C 018:559 JLINK_ReadMem (0x20000024, 0x0004 Bytes, ...) -- CPU is running -- CPU_ReadMem(4 bytes @ 0x20000024) - Data: 64 00 00 00  returns 0x00 (0001ms, 1053ms total)
T282C 018:560 JLINK_ReadMem (0x40006400, 0x001C Bytes, ...) -- CPU is running -- CPU_ReadMem(28 bytes @ 0x40006400) - Data: 04 00 01 00 08 02 00 00 00 00 00 1C 00 00 00 00 ...  returns 0x00 (0002ms, 1055ms total)
T282C 018:562 JLINK_ReadMem (0x4000641C, 0x0004 Bytes, ...) -- CPU is running -- CPU_ReadMem(4 bytes @ 0x4000641C) - Data: 05 00 12 00  returns 0x00 (0001ms, 1056ms total)
T282C 018:563 JLINK_ReadMem (0x40006580, 0x004C Bytes, ...) -- CPU is running -- CPU_ReadMem(76 bytes @ 0x40006580) - Data: 00 00 00 40 38 58 91 44 07 D0 FE BD 07 D0 07 D0 ...  returns 0x00 (0002ms, 1058ms total)
T282C 018:565 JLINK_ReadMem (0x400065CC, 0x0004 Bytes, ...) -- CPU is running -- CPU_ReadMem(4 bytes @ 0x400065CC) - Data: 37 5D 6E F7  returns 0x00 (0001ms, 1059ms total)
T282C 018:567 JLINK_ReadMem (0x40006600, 0x0004 Bytes, ...) -- CPU is running -- CPU_ReadMem(4 bytes @ 0x40006600) - Data: 00 0E 1C 2A  returns 0x00 (0001ms, 1061ms total)
T282C 018:568 JLINK_ReadMem (0x40006604, 0x0004 Bytes, ...) -- CPU is running -- CPU_ReadMem(4 bytes @ 0x40006604) - Data: 00 00 00 00  returns 0x00 (0001ms, 1062ms total)
T282C 018:569 JLINK_ReadMem (0x4000660C, 0x0004 Bytes, ...) -- CPU is running -- CPU_ReadMem(4 bytes @ 0x4000660C) - Data: 01 00 00 00  returns 0x00 (0002ms, 1064ms total)
T282C 018:571 JLINK_ReadMem (0x40006614, 0x0004 Bytes, ...) -- CPU is running -- CPU_ReadMem(4 bytes @ 0x40006614) - Data: 00 00 00 00  returns 0x00 (0001ms, 1065ms total)
T282C 018:572 JLINK_ReadMem (0x4000661C, 0x0004 Bytes, ...) -- CPU is running -- CPU_ReadMem(4 bytes @ 0x4000661C) - Data: 01 00 00 00  returns 0x00 (0001ms, 1066ms total)
T282C 018:573 JLINK_ReadMem (0x40006640, 0x006C Bytes, ...) -- CPU is running -- CPU_ReadMem(108 bytes @ 0x40006640) - Data: 00 00 00 00 00 00 00 00 75 45 0D 32 AD FE 2A A6 ...  returns 0x00 (0002ms, 1068ms total)
T282C 018:575 JLINK_ReadMem (0x400066AC, 0x0004 Bytes, ...) -- CPU is running -- CPU_ReadMem(4 bytes @ 0x400066AC) - Data: EB 3B 3E 1B  returns 0x00 (0002ms, 1070ms total)
T39B8 018:590 JLINK_IsHalted()  returns FALSE (0002ms, 1072ms total)
T39B8 018:693 JLINK_IsHalted()  returns FALSE (0001ms, 1071ms total)
T39B8 018:795 JLINK_IsHalted()  returns FALSE (0001ms, 1071ms total)
T39B8 018:897 JLINK_IsHalted()  returns FALSE (0014ms, 1084ms total)
T39B8 019:012 JLINK_IsHalted()  returns FALSE (0001ms, 1071ms total)
T39B8 019:114 JLINK_ReadMemU32(0xE0001004, 0x0001 Items, ...) -- CPU is running -- CPU_ReadMem(4 bytes @ 0xE0001004) - Data: E5 12 9C 19  returns 0x01 (0001ms, 1071ms total)
T282C 019:121 JLINK_ReadMem (0x20000024, 0x0004 Bytes, ...) -- CPU is running -- CPU_ReadMem(4 bytes @ 0x20000024) - Data: 64 00 00 00  returns 0x00 (0001ms, 1072ms total)
T282C 019:122 JLINK_ReadMem (0x40006400, 0x001C Bytes, ...) -- CPU is running -- CPU_ReadMem(28 bytes @ 0x40006400) - Data: 04 00 01 00 08 0C 00 00 00 00 00 1C 00 00 00 00 ...  returns 0x00 (0002ms, 1074ms total)
T282C 019:124 JLINK_ReadMem (0x4000641C, 0x0004 Bytes, ...) -- CPU is running -- CPU_ReadMem(4 bytes @ 0x4000641C) - Data: 05 00 12 00  returns 0x00 (0002ms, 1076ms total)
